Debug: 11 5 command.c:153 script_debug(): command - transport select
Info : 12 5 transport.c:267 handle_transport_select(): auto-selecting first available session transport "jtag". To override use 'transport select <transport>'.
Debug: 13 5 command.c:153 script_debug(): command - transport select
Debug: 14 5 command.c:153 script_debug(): command - jtag newtap riscv cpu -irlen 5 -expected-id 0x249511C3
Debug: 15 5 tcl.c:404 handle_jtag_newtap_args(): Creating New Tap, Chip: riscv, Tap: cpu, Dotted: riscv.cpu, 4 params
Debug: 16 5 core.c:1488 jtag_tap_init(): Created Tap: riscv.cpu @ abs position 0, irlen 5, capture: 0x1 mask: 0x3
Debug: 17 5 command.c:153 script_debug(): command - jtag names
Debug: 18 5 command.c:153 script_debug(): command - target create riscv.cpu riscv -chain-position riscv.cpu
Debug: 19 5 target.c:2131 target_free_all_working_areas_restore(): freeing all working areas
Debug: 20 5 riscv.c:432 riscv_create_target(): riscv_create_target()
Debug: 21 5 command.c:153 script_debug(): command - riscv set_reset_timeout_sec 2000
Debug: 22 5 command.c:153 script_debug(): command - riscv set_command_timeout_sec 2000
Debug: 23 5 command.c:153 script_debug(): command - riscv set_mem_access sysbus
Debug: 24 5 command.c:153 script_debug(): command - scan_chain
Debug: 25 5 command.c:153 script_debug(): command - init
Debug: 26 5 command.c:153 script_debug(): command - target init
Debug: 27 5 command.c:153 script_debug(): command - target names
Debug: 28 5 command.c:153 script_debug(): command - riscv.cpu cget -event gdb-flash-erase-start
Debug: 29 5 command.c:153 script_debug(): command - riscv.cpu configure -event gdb-flash-erase-start reset init
Debug: 30 5 command.c:153 script_debug(): command - riscv.cpu cget -event gdb-flash-write-end
Debug: 31 5 command.c:153 script_debug(): command - riscv.cpu configure -event gdb-flash-write-end reset halt
Debug: 32 5 command.c:153 script_debug(): command - riscv.cpu cget -event gdb-attach
Debug: 33 5 command.c:153 script_debug(): command - riscv.cpu configure -event gdb-attach halt 1000
Debug: 34 5 target.c:1589 handle_target_init_command(): Initializing targets...
Debug: 35 5 riscv.c:445 riscv_init_target(): riscv_init_target()
Debug: 36 5 semihosting_common.c:109 semihosting_common_init():  
Info : 37 6 remote_bitbang.c:378 remote_bitbang_init(): Initializing remote_bitbang driver
Info : 38 6 remote_bitbang.c:300 remote_bitbang_init_tcp(): Connecting to localhost:9999
Info : 39 6 remote_bitbang.c:389 remote_bitbang_init(): remote_bitbang driver initialized
Info : 40 6 adapter.c:157 adapter_init(): Note: The adapter "remote_bitbang" doesn't support configurable speed
Debug: 41 6 openocd.c:133 handle_init_command(): Debug Adapter init complete
Debug: 42 6 command.c:153 script_debug(): command - transport init
Debug: 43 6 transport.c:219 handle_transport_init(): handle_transport_init
Debug: 44 6 core.c:843 jtag_add_reset(): SRST line released
Debug: 45 6 core.c:868 jtag_add_reset(): TRST line released
Debug: 46 6 core.c:334 jtag_call_event_callbacks(): jtag event: TAP reset
Debug: 47 6 command.c:153 script_debug(): command - jtag arp_init
Debug: 48 6 core.c:1522 jtag_init_inner(): Init JTAG chain
Debug: 49 6 core.c:334 jtag_call_event_callbacks(): jtag event: TAP reset
Debug: 50 6 core.c:1248 jtag_examine_chain(): DR scan interrogation for IDCODE/BYPASS
Debug: 51 6 core.c:334 jtag_call_event_callbacks(): jtag event: TAP reset
Info : 52 94 core.c:1146 jtag_examine_chain_display(): JTAG tap: riscv.cpu tap/device found: 0x249511c3 (mfg: 0x0e1 (Wintec Industries), part: 0x4951, ver: 0x2)
Debug: 53 94 core.c:1378 jtag_validate_ircapture(): IR capture validation scan
Debug: 54 135 core.c:1435 jtag_validate_ircapture(): riscv.cpu: IR capture 0x05
Debug: 55 135 command.c:153 script_debug(): command - dap init
Debug: 56 135 arm_dap.c:96 dap_init_all(): Initializing all DAPs ...
Debug: 57 135 openocd.c:150 handle_init_command(): Examining targets...
Debug: 58 135 target.c:675 target_examine_one(): [riscv.cpu] Examination started
Debug: 59 135 target.c:1775 target_call_event_callbacks(): target event 19 (examine-start) for core riscv.cpu
Debug: 60 135 riscv.c:1119 riscv_examine(): riscv_examine()
Debug: 61 176 riscv.c:406 dtmcontrol_scan(): DTMCONTROL: 0x0 -> 0x1071
Debug: 62 176 riscv.c:1129 riscv_examine(): dtmcontrol=0x1071
Debug: 63 176 riscv.c:1131 riscv_examine():   version=0x1
Debug: 64 187 riscv-013.c:2276 init_target(): init
Debug: 65 228 riscv-013.c:444 dtmcontrol_scan(): DTMCS: 0x0 -> 0x1071
Debug: 66 228 riscv-013.c:1566 examine(): dtmcontrol=0x1071
Debug: 67 228 riscv-013.c:1567 examine():   dmireset=0
Debug: 68 228 riscv-013.c:1568 examine():   idle=1
Debug: 69 228 riscv-013.c:1569 examine():   dmistat=0
Debug: 70 228 riscv-013.c:1570 examine():   abits=7
Debug: 71 228 riscv-013.c:1571 examine():   version=1
Debug: 72 228 riscv-013.c:250 get_dm(): [0] Allocating new DM
Debug: 73 269 riscv-013.c:390 scan(): 41b w 00000000 @10 -> + 00000000 @00; 0i
Debug: 74 310 riscv-013.c:390 scan(): 41b - 00000000 @10 -> + 00000000 @10; 0i
Debug: 75 351 riscv-013.c:390 scan(): 41b w 00000001 @10 -> + 00000000 @10; 0i
Debug: 76 351 riscv-013.c:400 scan():  dmactive -> 
Debug: 77 392 riscv-013.c:390 scan(): 41b - 00000000 @10 -> + 00000001 @10; 0i
Debug: 78 392 riscv-013.c:400 scan():  ->  dmactive
Debug: 79 433 riscv-013.c:390 scan(): 41b w 07ffffc1 @10 -> + 00000000 @10; 0i
Debug: 80 433 riscv-013.c:400 scan():  hasel hartselhi=1023 hartsello=1023 dmactive -> 
Debug: 81 474 riscv-013.c:390 scan(): 41b - 00000000 @10 -> + 07ffffc1 @10; 0i
Debug: 82 474 riscv-013.c:400 scan():  ->  hasel hartselhi=1023 hartsello=1023 dmactive
Debug: 83 515 riscv-013.c:390 scan(): 41b r 00000000 @10 -> + 00000000 @10; 0i
Debug: 84 556 riscv-013.c:390 scan(): 41b - 00000000 @10 -> b 00000000 @10; 0i
Debug: 85 556 riscv-013.c:453 increase_dmi_busy_delay(): dtmcs_idle=1, dmi_busy_delay=1, ac_busy_delay=0
Debug: 86 597 riscv-013.c:444 dtmcontrol_scan(): DTMCS: 0x10000 -> 0x1c71
Debug: 87 638 riscv-013.c:390 scan(): 41b - 00000000 @10 -> + 00000001 @10; 1i
Debug: 88 638 riscv-013.c:400 scan():  ->  dmactive
Debug: 89 680 riscv-013.c:390 scan(): 41b r 00000000 @11 -> + 00000000 @10; 1i
Debug: 90 720 riscv-013.c:390 scan(): 41b - 00000000 @11 -> b 00000000 @11; 1i
Debug: 91 720 riscv-013.c:453 increase_dmi_busy_delay(): dtmcs_idle=1, dmi_busy_delay=2, ac_busy_delay=0
Debug: 92 761 riscv-013.c:444 dtmcontrol_scan(): DTMCS: 0x10000 -> 0x1c71
Debug: 93 802 riscv-013.c:390 scan(): 41b - 00000000 @11 -> + 000c0c82 @11; 2i
Debug: 94 802 riscv-013.c:400 scan():  ->  allhavereset anyhavereset allrunning anyrunning authenticated version=2
Debug: 95 802 riscv-013.c:1616 examine(): dmstatus:  0x000c0c82
Debug: 96 802 riscv-013.c:1632 examine(): hartsellen=0
Debug: 97 843 riscv-013.c:390 scan(): 41b r 00000000 @12 -> + 00000000 @11; 2i
Debug: 98 884 riscv-013.c:390 scan(): 41b - 00000000 @12 -> b 00000000 @12; 2i
Debug: 99 884 riscv-013.c:453 increase_dmi_busy_delay(): dtmcs_idle=1, dmi_busy_delay=3, ac_busy_delay=0
Debug: 100 925 riscv-013.c:444 dtmcontrol_scan(): DTMCS: 0x10000 -> 0x1c71
Debug: 101 966 riscv-013.c:390 scan(): 41b - 00000000 @12 -> + 00212380 @12; 3i
Debug: 102 1007 riscv-013.c:390 scan(): 41b r 00000000 @38 -> + 00000000 @12; 3i
Debug: 103 1048 riscv-013.c:390 scan(): 41b - 00000000 @38 -> b 00000000 @38; 3i
Debug: 104 1048 riscv-013.c:453 increase_dmi_busy_delay(): dtmcs_idle=1, dmi_busy_delay=4, ac_busy_delay=0
Debug: 105 1090 riscv-013.c:444 dtmcontrol_scan(): DTMCS: 0x10000 -> 0x1c71
Debug: 106 1130 riscv-013.c:390 scan(): 41b - 00000000 @38 -> + 20040407 @38; 4i
Debug: 107 1130 riscv-013.c:400 scan():  ->  sbversion=1 sbaccess=2 sbasize=32 sbaccess32 sbaccess16 sbaccess8
Debug: 108 1171 riscv-013.c:390 scan(): 41b r 00000000 @16 -> + 00000000 @38; 4i
Debug: 109 1212 riscv-013.c:390 scan(): 41b - 00000000 @16 -> b 00000000 @16; 4i
Debug: 110 1212 riscv-013.c:453 increase_dmi_busy_delay(): dtmcs_idle=1, dmi_busy_delay=5, ac_busy_delay=0
Debug: 111 1253 riscv-013.c:444 dtmcontrol_scan(): DTMCS: 0x10000 -> 0x1c71
Debug: 112 1294 riscv-013.c:390 scan(): 41b - 00000000 @16 -> + 08000002 @16; 5i
Debug: 113 1294 riscv-013.c:400 scan():  ->  progbufsize=8 datacount=2
Info : 114 1294 riscv-013.c:1663 examine(): datacount=2 progbufsize=8
Debug: 115 1335 riscv-013.c:390 scan(): 41b r 00000000 @10 -> + 00000000 @16; 5i
Debug: 116 1376 riscv-013.c:390 scan(): 41b - 00000000 @10 -> + 00000001 @10; 5i
Debug: 117 1376 riscv-013.c:400 scan():  ->  dmactive
Debug: 118 1417 riscv-013.c:390 scan(): 41b w 00000001 @10 -> + 00000000 @10; 5i
Debug: 119 1417 riscv-013.c:400 scan():  dmactive -> 
Debug: 120 1458 riscv-013.c:390 scan(): 41b - 00000000 @10 -> + 00000001 @10; 5i
Debug: 121 1458 riscv-013.c:400 scan():  ->  dmactive
Debug: 122 1499 riscv-013.c:390 scan(): 41b r 00000000 @11 -> + 00000000 @10; 5i
Debug: 123 1540 riscv-013.c:390 scan(): 41b - 00000000 @11 -> + 000c0c82 @11; 5i
Debug: 124 1540 riscv-013.c:400 scan():  ->  allhavereset anyhavereset allrunning anyrunning authenticated version=2
Debug: 125 1581 riscv-013.c:390 scan(): 41b w 10000001 @10 -> + 00000000 @11; 5i
Debug: 126 1581 riscv-013.c:400 scan():  dmactive ackhavereset -> 
Debug: 127 1622 riscv-013.c:390 scan(): 41b - 00000000 @10 -> + 10000001 @10; 5i
Debug: 128 1622 riscv-013.c:400 scan():  ->  dmactive ackhavereset
Debug: 129 1622 riscv-013.c:1701 examine(): Detected 1 harts.
Debug: 130 1663 riscv-013.c:390 scan(): 41b r 00000000 @11 -> + 00000000 @10; 5i
Debug: 131 1704 riscv-013.c:390 scan(): 41b - 00000000 @11 -> + 00000c82 @11; 5i
Debug: 132 1704 riscv-013.c:400 scan():  ->  allrunning anyrunning authenticated version=2
Debug: 133 1704 riscv-013.c:4213 riscv013_halt_go(): halting hart 0
Debug: 134 1745 riscv-013.c:390 scan(): 41b w 80000001 @10 -> + 00000000 @11; 5i
Debug: 135 1745 riscv-013.c:400 scan(): haltreq dmactive -> 
Debug: 136 1786 riscv-013.c:390 scan(): 41b - 00000000 @10 -> + 80000001 @10; 5i
Debug: 137 1786 riscv-013.c:400 scan():  -> haltreq dmactive
Debug: 138 1827 riscv-013.c:390 scan(): 41b r 00000000 @11 -> + 00000000 @10; 5i
Debug: 139 1868 riscv-013.c:390 scan(): 41b - 00000000 @11 -> + 00000382 @11; 5i
Debug: 140 1868 riscv-013.c:400 scan():  ->  allhalted anyhalted authenticated version=2
Debug: 141 1909 riscv-013.c:390 scan(): 41b r 00000000 @11 -> + 00000000 @11; 5i
Debug: 142 1950 riscv-013.c:390 scan(): 41b - 00000000 @11 -> + 00000382 @11; 5i
Debug: 143 1950 riscv-013.c:400 scan():  ->  allhalted anyhalted authenticated version=2
Debug: 144 1991 riscv-013.c:390 scan(): 41b w 00000001 @10 -> + 00000000 @11; 5i
Debug: 145 1991 riscv-013.c:400 scan():  dmactive -> 
Debug: 146 2032 riscv-013.c:390 scan(): 41b - 00000000 @10 -> + 00000001 @10; 5i
Debug: 147 2032 riscv-013.c:400 scan():  ->  dmactive
Debug: 148 2032 riscv-013.c:777 execute_abstract_command(): command=0x321008; access register, size=64, postexec=0, transfer=1, write=0, regno=0x1008
Debug: 149 2073 riscv-013.c:390 scan(): 41b w 00321008 @17 -> + 00000000 @10; 5i
Debug: 150 2114 riscv-013.c:390 scan(): 41b r 00000000 @16 -> + 00321008 @17; 5i
Debug: 151 2155 riscv-013.c:390 scan(): 41b - 00000000 @16 -> + 08000202 @16; 5i
Debug: 152 2155 riscv-013.c:400 scan():  ->  progbufsize=8 cmderr=2 datacount=2
Debug: 153 2155 riscv-013.c:800 execute_abstract_command(): command 0x321008 failed; abstractcs=0x8000202
Debug: 154 2196 riscv-013.c:390 scan(): 41b w 00000700 @16 -> + 00000000 @16; 5i
Debug: 155 2196 riscv-013.c:400 scan():  cmderr=7 -> 
Debug: 156 2237 riscv-013.c:390 scan(): 41b - 00000000 @16 -> + 00000700 @16; 5i
Debug: 157 2237 riscv-013.c:400 scan():  ->  cmderr=7
Debug: 158 2237 riscv-013.c:777 execute_abstract_command(): command=0x220301; access register, size=32, postexec=0, transfer=1, write=0, regno=0x301
Debug: 159 2278 riscv-013.c:390 scan(): 41b w 00220301 @17 -> + 00000000 @16; 5i
Debug: 160 2319 riscv-013.c:390 scan(): 41b r 00000000 @16 -> + 00220301 @17; 5i
Debug: 161 2360 riscv-013.c:390 scan(): 41b - 00000000 @16 -> + 08000002 @16; 5i
Debug: 162 2360 riscv-013.c:400 scan():  ->  progbufsize=8 datacount=2
Debug: 163 2401 riscv-013.c:390 scan(): 41b r 00000000 @04 -> + 00000000 @16; 5i
Debug: 164 2442 riscv-013.c:390 scan(): 41b - 00000000 @04 -> + 40001104 @04; 5i
Debug: 165 2442 riscv-013.c:1487 register_read_direct(): {0} misa = 0x40001104
Debug: 166 2442 riscv.c:3806 riscv_init_registers(): create register cache for 4194 registers
Debug: 167 2443 riscv-013.c:1751 examine():  hart 0: XLEN=32, misa=0x40001104
Debug: 168 2443 riscv-013.c:4440 riscv013_step_or_resume_current_hart(): resuming hart 0 (for step?=0)
Debug: 169 2483 riscv-013.c:390 scan(): 41b r 00000000 @11 -> + 00000000 @04; 5i
Debug: 170 2524 riscv-013.c:390 scan(): 41b - 00000000 @11 -> + 00000382 @11; 5i
Debug: 171 2524 riscv-013.c:400 scan():  ->  allhalted anyhalted authenticated version=2
Debug: 172 2565 riscv-013.c:390 scan(): 41b w 40000001 @10 -> + 00000000 @11; 5i
Debug: 173 2565 riscv-013.c:400 scan():  resumereq dmactive -> 
Debug: 174 2606 riscv-013.c:390 scan(): 41b - 00000000 @10 -> + 40000001 @10; 5i
Debug: 175 2606 riscv-013.c:400 scan():  ->  resumereq dmactive
Debug: 176 2647 riscv-013.c:390 scan(): 41b r 00000000 @11 -> + 00000000 @10; 5i
Debug: 177 2689 riscv-013.c:390 scan(): 41b - 00000000 @11 -> + 00030c82 @11; 5i
Debug: 178 2689 riscv-013.c:400 scan():  ->  allresumeack anyresumeack allrunning anyrunning authenticated version=2
Debug: 179 2730 riscv-013.c:390 scan(): 41b w 00000001 @10 -> + 00000000 @11; 5i
Debug: 180 2730 riscv-013.c:400 scan():  dmactive -> 
Debug: 181 2771 riscv-013.c:390 scan(): 41b - 00000000 @10 -> + 00000001 @10; 5i
Debug: 182 2771 riscv-013.c:400 scan():  ->  dmactive
Info : 183 2771 riscv-013.c:1774 examine(): Examined RISC-V core; found 1 harts
Info : 184 2771 riscv-013.c:1776 examine():  hart 0: XLEN=32, misa=0x40001104
Debug: 185 2771 target.c:1775 target_call_event_callbacks(): target event 21 (examine-end) for core riscv.cpu
Info : 186 2771 target.c:691 target_examine_one(): [riscv.cpu] Examination succeed
Debug: 187 2771 command.c:153 script_debug(): command - flash init
Debug: 188 2771 tcl.c:1364 handle_flash_init_command(): Initializing flash devices...
Debug: 189 2771 command.c:153 script_debug(): command - nand init
Debug: 190 2771 tcl.c:484 handle_nand_init_command(): Initializing NAND devices...
Debug: 191 2771 command.c:153 script_debug(): command - pld init
Debug: 192 2771 pld.c:337 handle_pld_init_command(): Initializing PLDs...
Debug: 193 2771 command.c:153 script_debug(): command - tpiu init
Info : 194 2771 gdb_server.c:3831 gdb_target_start(): [riscv.cpu] starting gdb server on 3333
Info : 195 2771 server.c:298 add_service(): Listening on port 3333 for gdb connections
Debug: 196 2771 command.c:153 script_debug(): command - target names
Debug: 197 2771 command.c:153 script_debug(): command - target names
Debug: 198 2771 command.c:153 script_debug(): command - riscv.cpu cget -type
Debug: 199 2771 command.c:153 script_debug(): command - halt
Debug: 200 2771 target.c:3253 handle_halt_command(): -
Debug: 201 2771 riscv.c:1233 riscv_halt(): [0] halting all harts
Debug: 202 2771 riscv.c:1168 halt_prep(): [riscv.cpu] prep hart, debug_reason=0
Debug: 203 2771 riscv.c:3219 riscv_set_current_hartid(): setting hartid to 0, was 0
Debug: 204 2812 riscv-013.c:390 scan(): 41b r 00000000 @11 -> + 00000000 @10; 5i
Debug: 205 2853 riscv-013.c:390 scan(): 41b - 00000000 @11 -> + 00030c82 @11; 5i
Debug: 206 2853 riscv-013.c:400 scan():  ->  allresumeack anyresumeack allrunning anyrunning authenticated version=2
Debug: 207 2853 riscv.c:3219 riscv_set_current_hartid(): setting hartid to 0, was 0
Debug: 208 2894 riscv-013.c:390 scan(): 41b r 00000000 @11 -> + 00000000 @11; 5i
Debug: 209 2935 riscv-013.c:390 scan(): 41b - 00000000 @11 -> + 00030c82 @11; 5i
Debug: 210 2935 riscv-013.c:400 scan():  ->  allresumeack anyresumeack allrunning anyrunning authenticated version=2
Debug: 211 2935 riscv-013.c:4213 riscv013_halt_go(): halting hart 0
Debug: 212 2976 riscv-013.c:390 scan(): 41b w 80000001 @10 -> + 00000000 @11; 5i
Debug: 213 2976 riscv-013.c:400 scan(): haltreq dmactive -> 
Debug: 214 3017 riscv-013.c:390 scan(): 41b - 00000000 @10 -> + 80000001 @10; 5i
Debug: 215 3017 riscv-013.c:400 scan():  -> haltreq dmactive
Debug: 216 3058 riscv-013.c:390 scan(): 41b r 00000000 @11 -> + 00000000 @10; 5i
Debug: 217 3099 riscv-013.c:390 scan(): 41b - 00000000 @11 -> + 00030382 @11; 5i
Debug: 218 3099 riscv-013.c:400 scan():  ->  allresumeack anyresumeack allhalted anyhalted authenticated version=2
Debug: 219 3140 riscv-013.c:390 scan(): 41b r 00000000 @11 -> + 00000000 @11; 5i
Debug: 220 3182 riscv-013.c:390 scan(): 41b - 00000000 @11 -> + 00030382 @11; 5i
Debug: 221 3182 riscv-013.c:400 scan():  ->  allresumeack anyresumeack allhalted anyhalted authenticated version=2
Debug: 222 3222 riscv-013.c:390 scan(): 41b w 00000001 @10 -> + 00000000 @11; 5i
Debug: 223 3222 riscv-013.c:400 scan():  dmactive -> 
Debug: 224 3263 riscv-013.c:390 scan(): 41b - 00000000 @10 -> + 00000001 @10; 5i
Debug: 225 3263 riscv-013.c:400 scan():  ->  dmactive
Debug: 226 3263 riscv.c:3229 riscv_invalidate_register_cache(): [0]
Debug: 227 3263 target.c:1775 target_call_event_callbacks(): target event 0 (gdb-halt) for core riscv.cpu
Debug: 228 3263 target.c:1775 target_call_event_callbacks(): target event 1 (halted) for core riscv.cpu
Debug: 229 3263 riscv.c:2184 riscv_openocd_poll(): polling all harts
Debug: 230 3263 riscv.c:3219 riscv_set_current_hartid(): setting hartid to 0, was 0
Debug: 231 3263 riscv.c:2089 riscv_poll_hart(): polling hart 0, target->state=2
Debug: 232 3305 riscv-013.c:390 scan(): 41b r 00000000 @11 -> + 00000000 @10; 5i
Debug: 233 3345 riscv-013.c:390 scan(): 41b - 00000000 @11 -> + 00030382 @11; 5i
Debug: 234 3345 riscv-013.c:400 scan():  ->  allresumeack anyresumeack allhalted anyhalted authenticated version=2
Debug: 235 3345 command.c:153 script_debug(): command - echo Ready for Remote Connections
Debug: 236 3345 riscv.c:2184 riscv_openocd_poll(): polling all harts
Debug: 237 3345 riscv.c:3219 riscv_set_current_hartid(): setting hartid to 0, was 0
Debug: 238 3345 riscv.c:2089 riscv_poll_hart(): polling hart 0, target->state=2
Debug: 239 3386 riscv-013.c:390 scan(): 41b r 00000000 @11 -> + 00000000 @11; 5i
Debug: 240 3427 riscv-013.c:390 scan(): 41b - 00000000 @11 -> + 00030382 @11; 5i
Debug: 241 3427 riscv-013.c:400 scan():  ->  allresumeack anyresumeack allhalted anyhalted authenticated version=2
User : 242 3427 command.c:678 handle_echo(): Ready for Remote Connections
Info : 243 3427 server.c:298 add_service(): Listening on port 6666 for tcl connections
Info : 244 3428 server.c:298 add_service(): Listening on port 4444 for telnet connections
Debug: 245 3428 command.c:153 script_debug(): command - init
Debug: 246 3445 riscv.c:2184 riscv_openocd_poll(): polling all harts
Debug: 247 3445 riscv.c:3219 riscv_set_current_hartid(): setting hartid to 0, was 0
Debug: 248 3445 riscv.c:2089 riscv_poll_hart(): polling hart 0, target->state=2
Debug: 249 3485 riscv-013.c:390 scan(): 41b r 00000000 @11 -> + 00000000 @11; 5i
Debug: 250 3526 riscv-013.c:390 scan(): 41b - 00000000 @11 -> + 00030382 @11; 5i
Debug: 251 3526 riscv-013.c:400 scan():  ->  allresumeack anyresumeack allhalted anyhalted authenticated version=2
Debug: 252 3545 riscv.c:2184 riscv_openocd_poll(): polling all harts
Debug: 253 3545 riscv.c:3219 riscv_set_current_hartid(): setting hartid to 0, was 0
Debug: 254 3546 riscv.c:2089 riscv_poll_hart(): polling hart 0, target->state=2
Debug: 255 3586 riscv-013.c:390 scan(): 41b r 00000000 @11 -> + 00000000 @11; 5i
Debug: 256 3628 riscv-013.c:390 scan(): 41b - 00000000 @11 -> + 00030382 @11; 5i
Debug: 257 3628 riscv-013.c:400 scan():  ->  allresumeack anyresumeack allhalted anyhalted authenticated version=2
Debug: 258 3645 riscv.c:2184 riscv_openocd_poll(): polling all harts
Debug: 259 3645 riscv.c:3219 riscv_set_current_hartid(): setting hartid to 0, was 0
Debug: 260 3645 riscv.c:2089 riscv_poll_hart(): polling hart 0, target->state=2
Debug: 261 3685 riscv-013.c:390 scan(): 41b r 00000000 @11 -> + 00000000 @11; 5i
Debug: 262 3726 riscv-013.c:390 scan(): 41b - 00000000 @11 -> + 00030382 @11; 5i
Debug: 263 3726 riscv-013.c:400 scan():  ->  allresumeack anyresumeack allhalted anyhalted authenticated version=2
Debug: 264 3745 riscv.c:2184 riscv_openocd_poll(): polling all harts
Debug: 265 3745 riscv.c:3219 riscv_set_current_hartid(): setting hartid to 0, was 0
Debug: 266 3746 riscv.c:2089 riscv_poll_hart(): polling hart 0, target->state=2
Debug: 267 3786 riscv-013.c:390 scan(): 41b r 00000000 @11 -> + 00000000 @11; 5i
Debug: 268 3827 riscv-013.c:390 scan(): 41b - 00000000 @11 -> + 00030382 @11; 5i
Debug: 269 3827 riscv-013.c:400 scan():  ->  allresumeack anyresumeack allhalted anyhalted authenticated version=2
Debug: 270 3845 riscv.c:2184 riscv_openocd_poll(): polling all harts
Debug: 271 3845 riscv.c:3219 riscv_set_current_hartid(): setting hartid to 0, was 0
Debug: 272 3845 riscv.c:2089 riscv_poll_hart(): polling hart 0, target->state=2
Debug: 273 3886 riscv-013.c:390 scan(): 41b r 00000000 @11 -> + 00000000 @11; 5i
Debug: 274 3927 riscv-013.c:390 scan(): 41b - 00000000 @11 -> + 00030382 @11; 5i
Debug: 275 3927 riscv-013.c:400 scan():  ->  allresumeack anyresumeack allhalted anyhalted authenticated version=2
Debug: 276 3945 riscv.c:2184 riscv_openocd_poll(): polling all harts
Debug: 277 3945 riscv.c:3219 riscv_set_current_hartid(): setting hartid to 0, was 0
Debug: 278 3946 riscv.c:2089 riscv_poll_hart(): polling hart 0, target->state=2
Debug: 279 3986 riscv-013.c:390 scan(): 41b r 00000000 @11 -> + 00000000 @11; 5i
Debug: 280 4027 riscv-013.c:390 scan(): 41b - 00000000 @11 -> + 00030382 @11; 5i
Debug: 281 4027 riscv-013.c:400 scan():  ->  allresumeack anyresumeack allhalted anyhalted authenticated version=2
Debug: 282 4045 riscv.c:2184 riscv_openocd_poll(): polling all harts
Debug: 283 4045 riscv.c:3219 riscv_set_current_hartid(): setting hartid to 0, was 0
Debug: 284 4045 riscv.c:2089 riscv_poll_hart(): polling hart 0, target->state=2
Debug: 285 4086 riscv-013.c:390 scan(): 41b r 00000000 @11 -> + 00000000 @11; 5i
Debug: 286 4127 riscv-013.c:390 scan(): 41b - 00000000 @11 -> + 00030382 @11; 5i
Debug: 287 4127 riscv-013.c:400 scan():  ->  allresumeack anyresumeack allhalted anyhalted authenticated version=2
Debug: 288 4145 riscv.c:2184 riscv_openocd_poll(): polling all harts
Debug: 289 4146 riscv.c:3219 riscv_set_current_hartid(): setting hartid to 0, was 0
Debug: 290 4146 riscv.c:2089 riscv_poll_hart(): polling hart 0, target->state=2
Debug: 291 4186 riscv-013.c:390 scan(): 41b r 00000000 @11 -> + 00000000 @11; 5i
Debug: 292 4227 riscv-013.c:390 scan(): 41b - 00000000 @11 -> + 00030382 @11; 5i
Debug: 293 4227 riscv-013.c:400 scan():  ->  allresumeack anyresumeack allhalted anyhalted authenticated version=2
Debug: 294 4246 riscv.c:2184 riscv_openocd_poll(): polling all harts
Debug: 295 4246 riscv.c:3219 riscv_set_current_hartid(): setting hartid to 0, was 0
Debug: 296 4246 riscv.c:2089 riscv_poll_hart(): polling hart 0, target->state=2
Debug: 297 4286 riscv-013.c:390 scan(): 41b r 00000000 @11 -> + 00000000 @11; 5i
Debug: 298 4327 riscv-013.c:390 scan(): 41b - 00000000 @11 -> + 00030382 @11; 5i
Debug: 299 4327 riscv-013.c:400 scan():  ->  allresumeack anyresumeack allhalted anyhalted authenticated version=2
Debug: 300 4346 riscv.c:2184 riscv_openocd_poll(): polling all harts
Debug: 301 4346 riscv.c:3219 riscv_set_current_hartid(): setting hartid to 0, was 0
Debug: 302 4346 riscv.c:2089 riscv_poll_hart(): polling hart 0, target->state=2
Debug: 303 4387 riscv-013.c:390 scan(): 41b r 00000000 @11 -> + 00000000 @11; 5i
Debug: 304 4428 riscv-013.c:390 scan(): 41b - 00000000 @11 -> + 00030382 @11; 5i
Debug: 305 4428 riscv-013.c:400 scan():  ->  allresumeack anyresumeack allhalted anyhalted authenticated version=2
Debug: 306 4447 riscv.c:2184 riscv_openocd_poll(): polling all harts
Debug: 307 4447 riscv.c:3219 riscv_set_current_hartid(): setting hartid to 0, was 0
Debug: 308 4447 riscv.c:2089 riscv_poll_hart(): polling hart 0, target->state=2
Debug: 309 4487 riscv-013.c:390 scan(): 41b r 00000000 @11 -> + 00000000 @11; 5i
Debug: 310 4528 riscv-013.c:390 scan(): 41b - 00000000 @11 -> + 00030382 @11; 5i
Debug: 311 4528 riscv-013.c:400 scan():  ->  allresumeack anyresumeack allhalted anyhalted authenticated version=2
Debug: 312 4547 riscv.c:2184 riscv_openocd_poll(): polling all harts
Debug: 313 4547 riscv.c:3219 riscv_set_current_hartid(): setting hartid to 0, was 0
Debug: 314 4548 riscv.c:2089 riscv_poll_hart(): polling hart 0, target->state=2
Debug: 315 4588 riscv-013.c:390 scan(): 41b r 00000000 @11 -> + 00000000 @11; 5i
Debug: 316 4629 riscv-013.c:390 scan(): 41b - 00000000 @11 -> + 00030382 @11; 5i
Debug: 317 4629 riscv-013.c:400 scan():  ->  allresumeack anyresumeack allhalted anyhalted authenticated version=2
